
**** 02/19/21 18:09:22 *********** Evaluation PSpice (Nov 1999) **************

 * C:\Users\boruto_uz\Desktop\edc\q1\Schematic1.sch


 ****     CIRCUIT DESCRIPTION


******************************************************************************




* Schematics Version 9.1 - Web Update 1
* Fri Feb 19 17:54:26 2021



** Analysis setup **
.OP 


* From [PSPICE NETLIST] section of pspiceev.ini:
.lib "nom.lib"

.INC "Schematic1.net"

**** INCLUDING Schematic1.net ****
* Schematics Netlist *



R_R1         $N_0002 $N_0001  500  
V_Vs         $N_0002 0 20V
V_Vx         $N_0003 0 0V
R_R4         $N_0004 0  200  
I_Is         0 $N_0004 DC 50mA  
V_Vy         $N_0005 $N_0004 0V
R_R2         $N_0005 $N_0001  800  
R_R3         $N_0003 $N_0001  1k  

**** RESUMING Schematic1.cir ****
.INC "Schematic1.als"



**** INCLUDING Schematic1.als ****
* Schematics Aliases *

.ALIASES
R_R1            R1(1=$N_0002 2=$N_0001 )
V_Vs            Vs(+=$N_0002 -=0 )
V_Vx            Vx(+=$N_0003 -=0 )
R_R4            R4(1=$N_0004 2=0 )
I_Is            Is(+=0 -=$N_0004 )
V_Vy            Vy(+=$N_0005 -=$N_0004 )
R_R2            R2(1=$N_0005 2=$N_0001 )
R_R3            R3(1=$N_0003 2=$N_0001 )
.ENDALIASES


**** RESUMING Schematic1.cir ****
.probe


.END

**** 02/19/21 18:09:22 *********** Evaluation PSpice (Nov 1999) **************

 * C:\Users\boruto_uz\Desktop\edc\q1\Schematic1.sch


 ****     SMALL SIGNAL BIAS SOLUTION       TEMPERATURE =   27.000 DEG C


******************************************************************************



 NODE   VOLTAGE     NODE   VOLTAGE     NODE   VOLTAGE     NODE   VOLTAGE


($N_0001)   12.5000                   ($N_0002)   20.0000                       

($N_0003)    0.0000                   ($N_0004)   10.5000                       

($N_0005)   10.5000                   




    VOLTAGE SOURCE CURRENTS
    NAME         CURRENT

    V_Vs        -1.500E-02
    V_Vx         1.250E-02
    V_Vy         2.500E-03

    TOTAL POWER DISSIPATION   3.00E-01  WATTS


**** 02/19/21 18:09:22 *********** Evaluation PSpice (Nov 1999) **************

 * C:\Users\boruto_uz\Desktop\edc\q1\Schematic1.sch


 ****     OPERATING POINT INFORMATION      TEMPERATURE =   27.000 DEG C


******************************************************************************





          JOB CONCLUDED

          TOTAL JOB TIME             .02
