
**** 02/19/21 18:36:38 *********** Evaluation PSpice (Nov 1999) **************

 *************Example4***************


 ****     CIRCUIT DESCRIPTION


******************************************************************************



Vin 1 0 DC 10V;
Is 4 3 DC 2A;
R1 1 2 5;
R2 2 3 10;
R3 2 0 20;
R4 3 4 40;
R5 5 0 10;
Vx 4 5 DC 0V;
.TF V(2,4) Vin;
.END;

**** 02/19/21 18:36:38 *********** Evaluation PSpice (Nov 1999) **************

 *************Example4***************


 ****     SMALL SIGNAL BIAS SOLUTION       TEMPERATURE =   27.000 DEG C


******************************************************************************



 NODE   VOLTAGE     NODE   VOLTAGE     NODE   VOLTAGE     NODE   VOLTAGE


(    1)   10.0000  (    2)   12.5000  (    3)   23.7500  (    4)  -11.2500      

(    5)  -11.2500  




    VOLTAGE SOURCE CURRENTS
    NAME         CURRENT

    Vin          5.000E-01
    Vx          -1.125E+00

    TOTAL POWER DISSIPATION  -5.00E+00  WATTS






 ****     SMALL-SIGNAL CHARACTERISTICS


      V(2,4)/Vin =  6.250E-01

      INPUT RESISTANCE AT Vin =  2.000E+01

      OUTPUT RESISTANCE AT V(2,4) =  1.094E+01


          JOB CONCLUDED

          TOTAL JOB TIME             .00
