
**** 02/19/21 18:52:08 *********** Evaluation PSpice (Nov 1999) **************

 **************QUESTION6******************


 ****     CIRCUIT DESCRIPTION


******************************************************************************



Vin 1 0 DC 1V;
R1 1 2 1K;
R2 2 0 20K;
Rp 2 6 1.5K;
Re 3 0 250;
F1 4 3 Vx 40;
Ro 4 3 100K;
Rc 4 5 2K;
Vx 6 3 DC 0V;
Vy 5 0 DC 0V;
.TF v(4) Vin;
.END;

**** 02/19/21 18:52:08 *********** Evaluation PSpice (Nov 1999) **************

 **************QUESTION6******************


 ****     SMALL SIGNAL BIAS SOLUTION       TEMPERATURE =   27.000 DEG C


******************************************************************************



 NODE   VOLTAGE     NODE   VOLTAGE     NODE   VOLTAGE     NODE   VOLTAGE


(    1)    1.0000  (    2)     .8797  (    3)     .7653  (    4)   -5.9695      

(    5)    0.0000  (    6)     .7653  




    VOLTAGE SOURCE CURRENTS
    NAME         CURRENT

    Vin         -1.203E-04
    Vx           7.630E-05
    Vy          -2.985E-03

    TOTAL POWER DISSIPATION   1.20E-04  WATTS






 ****     SMALL-SIGNAL CHARACTERISTICS


      V(4)/Vin = -5.969E+00

      INPUT RESISTANCE AT Vin =  8.313E+03

      OUTPUT RESISTANCE AT V(4) =  1.992E+03


          JOB CONCLUDED

          TOTAL JOB TIME             .00
